<Qucs Dataset 0.0.15>
<indep x 10>
  +1.00000000000e+00
  +2.00000000000e+00
  +3.00000000000e+00
  +4.00000000000e+00
  +5.00000000000e+00
  +6.00000000000e+00
  +7.00000000000e+00
  +8.00000000000e+00
  +9.00000000000e+00
  +1.00000000000e+01
</indep>
<dep V1.I x>
  -5.45000000000e+00
  -3.63333333333e+00
  -2.72500000000e+00
  -2.18000000000e+00
  -1.81666666667e+00
  -1.55714285714e+00
  -1.36250000000e+00
  -1.21111111111e+00
  -1.09000000000e+00
  -9.90909090909e-01
</dep>
<dep _net0.V x>
  +5.45000000000e+00
  +7.26666666667e+00
  +8.17500000000e+00
  +8.72000000000e+00
  +9.08333333333e+00
  +9.34285714286e+00
  +9.53750000000e+00
  +9.68888888889e+00
  +9.81000000000e+00
  +9.90909090909e+00
</dep>
<dep _net1.V x>
  +1.09000000000e+01
  +1.09000000000e+01
  +1.09000000000e+01
  +1.09000000000e+01
  +1.09000000000e+01
  +1.09000000000e+01
  +1.09000000000e+01
  +1.09000000000e+01
  +1.09000000000e+01
  +1.09000000000e+01
</dep>
